Circuit: * C:\Users\dinod\Desktop\Audio amplifier & power supply\Simulation\Class AB\AB wire parasitics - AC.asc

Warning: Multiple definitions of model "2scr375p" Type: BJT
Warning: Multiple definitions of model "bc857b" Type: BJT
Warning: Multiple definitions of model "bc847c" Type: BJT
Warning: Multiple definitions of model "bc847b" Type: BJT
Direct Newton iteration for .op point succeeded.
Semiconductor Device Operating Points:
                        --- Diodes ---
Name:      d1          d2          d3          d4      d:u1:_u1:1
Model:   1n4148      1n4148      1n4148      1n4148    u1:_u1:dvn
Id:      3.08e-02    3.08e-02    3.08e-02    3.08e-02    1.00e-02
Vd:      7.57e-01    7.57e-01    7.57e-01    7.57e-01    8.34e-01
Req:     1.47e+00    1.47e+00    1.47e+00    1.47e+00    2.59e+00
CAP:     1.36e-08    1.36e-08    1.36e-08    1.36e-08    0.00e+00

Name:  d:u1:_u1:2  d:u1:_u39:1  d:u1:_u39:2  d:u1:_u40:1  d:u1:_u40:2
Model: u1:_u1:dvn  u1:_u39:dvnf u1:_u39:dvnf u1:_u40:dvnf u1:_u40:dvnf
Id:      1.00e-02     1.00e-02     1.00e-02     1.00e-02     1.00e-02
Vd:      8.34e-01     8.34e-01     8.34e-01     8.34e-01     8.34e-01
Req:     2.59e+00     2.59e+00     2.59e+00     2.59e+00     2.59e+00
CAP:     0.00e+00     0.00e+00     0.00e+00     0.00e+00     0.00e+00

                        --- Bipolar Transistors ---
Name:       q1          q2          q3          q4
Model:    tip35c      tip36c       bd140       bd139
Ib:       1.21e-03   -1.21e-03   -3.07e-05    4.01e-05
Ic:       4.35e-01   -4.35e-01   -8.28e-03    8.27e-03
Vbe:      5.69e-01   -5.69e-01   -8.48e-01    8.47e-01
Vbc:     -1.53e+01    1.53e+01    1.45e+01   -1.45e+01
Vce:      1.59e+01   -1.59e+01   -1.53e+01    1.53e+01
BetaDC:   3.61e+02    3.61e+02    2.70e+02    2.07e+02
Gm:       1.69e+01    1.69e+01    3.22e-01    3.25e-01
Rpi:      2.04e+01    2.04e+01    8.27e+02    6.34e+02
Rx:       2.04e+01    2.04e+01    7.56e-02    5.78e-01
Ro:       8.74e+01    8.74e+01    6.52e+03    1.93e+04
Cbe:      7.54e-07    8.66e-07    2.80e-11    9.83e-10
Cbc:      8.92e-11    8.91e-11    1.80e-13    1.07e-11
Cjs:      0.00e+00    0.00e+00    0.00e+00    0.00e+00
BetaAC:   3.45e+02    3.45e+02    2.67e+02    2.06e+02
Cbx:      2.19e-11    2.19e-11    0.00e+00    0.00e+00
Ft:       3.57e+06    3.11e+06    1.82e+09    5.20e+07



Date: Thu Mar 20 22:49:34 2025
Total elapsed time: 0.151 seconds.

tnom = 27
temp = 27
method = trap
totiter = 7
traniter = 0
tranpoints = 0
accept = 0
rejected = 0
matrix size = 182
fillins = 211
solver = Normal
Avg thread counts: 20.0/0.0/20.0/1.8
Matrix Compiler1:    1225 opcodes
Matrix Compiler2: 19.25 KB object code size
