Circuit: * C:\Users\dinod\Desktop\Audio amplifier & power supply\Simulation\AB class\Draft1.asc

Warning: Multiple definitions of model "2scr375p" Type: BJT
Warning: Multiple definitions of model "bc857b" Type: BJT
Warning: Multiple definitions of model "bc847c" Type: BJT
Warning: Multiple definitions of model "bc847b" Type: BJT
Direct Newton iteration failed to find .op point.  (Use ".option noopiter" to skip.)
Starting Gmin stepping
Gmin = 10
vernier = 0.5
Gmin = 1.67772
vernier = 0.25
vernier = 0.125
vernier = 0.0625
Gmin = 1.40196
vernier = 0.0833333
vernier = 0.111111
Gmin = 1.15056
vernier = 0.0555555
vernier = 0.0277778
vernier = 0.0138889
vernier = 0.00694444
Gmin = 1.03113
vernier = 0.00925925
Gmin = 1.01047
vernier = 0.00462963
vernier = 0.00617283
Gmin = 1.00001
vernier = 0.00308642
vernier = 0.00154321
vernier = 0.000771604
vernier = 0.000578703
vernier = 0.000434027
Gmin = 0
Gmin stepping failed

Starting source stepping with srcstepmethod=0
Source Step = 3.0303%
vernier = 0.25
Source Step = 7.57576%
Source Step = 15.1515%
Source Step = 22.7273%
Source Step = 30.303%
Source Step = 37.8788%
vernier = 0.375
Source Step = 48.8636%
Source Step = 60.2273%
Source Step = 71.5909%
Source Step = 82.9545%
Source Step = 94.3182%
vernier = 0.5625
Source stepping succeeded in finding the operating point.

Semiconductor Device Operating Points:
                        --- Diodes ---
Name:  d:u1:_u1:1  d:u1:_u1:2  d:u1:_u39:1  d:u1:_u39:2  d:u1:_u40:1
Model: u1:_u1:dvn  u1:_u1:dvn  u1:_u39:dvnf u1:_u39:dvnf u1:_u40:dvnf
Id:      1.00e-02    1.00e-02     1.00e-02     1.00e-02     1.00e-02
Vd:      8.34e-01    8.34e-01     8.34e-01     8.34e-01     8.34e-01
Req:     2.59e+00    2.59e+00     2.59e+00     2.59e+00     2.59e+00
CAP:     0.00e+00    0.00e+00     0.00e+00     0.00e+00     0.00e+00

Name:  d:u1:_u40:2
Model: u1:_u40:dvnf
Id:       1.00e-02
Vd:       8.34e-01
Req:      2.59e+00
CAP:      0.00e+00

                        --- Bipolar Transistors ---
Name:       q1          q2          q3          q4
Model:    tip35c      tip36c       bd140       bd139
Ib:      -3.02e-11    3.39e-11    1.84e-11    3.22e-07
Ic:       4.99e-10   -1.61e-10   -1.77e-11    6.77e-05
Vbe:      3.20e-02   -1.56e-08    7.56e-01    7.24e-01
Vbc:     -1.60e+01    1.60e+01    1.68e+01   -1.52e+01
Vce:      1.60e+01   -1.60e+01   -1.60e+01    1.60e+01
BetaDC:  -1.65e+01   -4.76e+00   -9.59e-01    2.10e+02
Gm:       1.88e-08    5.16e-09    1.20e-28    2.66e-03
Rpi:      6.60e+09    1.16e+10    1.00e+12    7.88e+04
Rx:       2.09e+01    2.09e+01    8.02e-02    5.88e-01
Ro:       8.96e+10    3.29e+11    1.86e+31    2.40e+06
Cbe:      1.06e-07    1.00e-07    2.26e-13    2.66e-11
Cbc:      8.77e-11    8.76e-11    1.72e-13    1.05e-11
Cjs:      0.00e+00    0.00e+00    0.00e+00    0.00e+00
BetaAC:   1.24e+02    5.98e+01    1.20e-16    2.09e+02
Cbx:      2.15e-11    2.15e-11    0.00e+00    0.00e+00
Ft:       2.83e-02    8.21e-03    3.99e-01    1.14e+07



Date: Sun Mar 16 12:38:23 2025
Total elapsed time: 0.323 seconds.

tnom = 27
temp = 27
method = trap
totiter = 2863
traniter = 0
tranpoints = 0
accept = 0
rejected = 0
matrix size = 165
fillins = 449
solver = Normal
Avg thread counts: 3.6/0.0/20.0/1.7
Matrix Compiler1:    2043 opcodes
Matrix Compiler2: 21.91 KB object code size  1.3/1.6/[0.7]

